Title: Empty Header
Date: Tue Mar 28 16:11:38 2023
Plotname: Empty Plot
Flags: real
No. Variables: 0
No. Points: 0
Command: btdsim version rd
Variables: 
Values:
#btd_begin_sweep 1
#btd_param iteration 1
Title:   
Date: Tue Mar 28 16:11:40 2023
Plotname: Operating Point
Flags: real
No. Variables: 25
No. Points: 2
Command: btdsim version rd
Variables: 
	0	vn1	V
	1	n1	V
	2	n3	V
	3	n10	V
	4	n30	V
	5	n2	V
	6	n4	V
	7	n20	V
	8	n40	V
	9	xrnodwo1.1	V
	10	xrnodwo2.1	V
	11	xrpodwo1.1	V
	12	xrpodwo2.1	V
	13	xrnpolywo1.1	V
	14	xrnpolywo2.1	V
	15	xrppolywo1.1	V
	16	xrppolywo2.1	V
	17	vn1#branch	A
	18	vn3#branch	A
	19	vn10#branch	A
	20	vn30#branch	A
	21	vn2#branch	A
	22	vn4#branch	A
	23	vn20#branch	A
	24	vn40#branch	A
Values:
0	 1.000000e-01
	 1.000000e-01
	 1.000000e-01
	 1.000000e-01
	 1.000000e-01
	 1.000000e-01
	 1.000000e-01
	 1.000000e-01
	 1.000000e-01
	 6.200301e-02
	 6.200301e-02
	 7.709287e-02
	 7.709287e-02
	 6.973131e-02
	 6.973131e-02
	 9.706606e-02
	 9.706606e-02
	-7.190234e-04
	-7.274126e-04
	-4.066248e-04
	-4.147818e-04
	-4.283969e-04
	-4.051341e-04
	-1.533882e-04
	-1.549811e-04
1	 2.000000e-01
	 2.000000e-01
	 1.000000e-01
	 1.000000e-01
	 1.000000e-01
	 1.000000e-01
	 1.000000e-01
	 1.000000e-01
	 1.000000e-01
	 1.243782e-01
	 6.200301e-02
	 7.709287e-02
	 7.709287e-02
	 6.973131e-02
	 6.973131e-02
	 9.706606e-02
	 9.706606e-02
	-1.431004e-03
	-7.274126e-04
	-4.066248e-04
	-4.147818e-04
	-4.283969e-04
	-4.051341e-04
	-1.533882e-04
	-1.549811e-04
Title:   
Date: Tue Mar 28 16:11:40 2023
Plotname: Results of measure analysis
Flags: real
No. Variables: 4
No. Points: 1
Command: btdsim version rd
Variables: 
	0	res_mis_rnodwo	
	1	res_mis_rpodwo	
	2	res_mis_rnpolywo	
	3	res_mis_rppolywo	
Values:
0  1.15997512e-02
  1.98611050e-02
 -5.58174677e-02
  1.03314365e-02
#btd_param iteration 2
Title:   
Date: Tue Mar 28 16:11:41 2023
Plotname: Operating Point
Flags: real
No. Variables: 25
No. Points: 2
Command: btdsim version rd
Variables: 
	0	vn1	V
	1	n1	V
	2	n3	V
	3	n10	V
	4	n30	V
	5	n2	V
	6	n4	V
	7	n20	V
	8	n40	V
	9	xrnodwo1.1	V
	10	xrnodwo2.1	V
	11	xrpodwo1.1	V
	12	xrpodwo2.1	V
	13	xrnpolywo1.1	V
	14	xrnpolywo2.1	V
	15	xrppolywo1.1	V
	16	xrppolywo2.1	V
	17	vn1#branch	A
	18	vn3#branch	A
	19	vn10#branch	A
	20	vn30#branch	A
	21	vn2#branch	A
	22	vn4#branch	A
	23	vn20#branch	A
	24	vn40#branch	A
Values:
0	 1.000000e-01
	 1.000000e-01
	 1.000000e-01
	 1.000000e-01
	 1.000000e-01
	 1.000000e-01
	 1.000000e-01
	 1.000000e-01
	 1.000000e-01
	 6.200301e-02
	 6.200301e-02
	 7.709287e-02
	 7.709287e-02
	 6.973131e-02
	 6.973131e-02
	 9.706606e-02
	 9.706606e-02
	-7.107549e-04
	-7.200141e-04
	-4.134136e-04
	-4.120442e-04
	-3.987964e-04
	-4.390013e-04
	-1.548150e-04
	-1.556998e-04
1	 2.000000e-01
	 2.000000e-01
	 1.000000e-01
	 1.000000e-01
	 1.000000e-01
	 1.000000e-01
	 1.000000e-01
	 1.000000e-01
	 1.000000e-01
	 1.243782e-01
	 6.200301e-02
	 7.709287e-02
	 7.709287e-02
	 6.973131e-02
	 6.973131e-02
	 9.706606e-02
	 9.706606e-02
	-1.414548e-03
	-7.200141e-04
	-4.134136e-04
	-4.120442e-04
	-3.987964e-04
	-4.390013e-04
	-1.548150e-04
	-1.556998e-04
Title:   
Date: Tue Mar 28 16:11:41 2023
Plotname: Results of measure analysis
Flags: real
No. Variables: 4
No. Points: 1
Command: btdsim version rd
Variables: 
	0	res_mis_rnodwo	
	1	res_mis_rpodwo	
	2	res_mis_rnpolywo	
	3	res_mis_rppolywo	
Values:
0  1.29429403e-02
 -3.31814297e-03
  9.59775401e-02
  5.69901847e-03
#btd_param iteration 3
Title:   
Date: Tue Mar 28 16:11:42 2023
Plotname: Operating Point
Flags: real
No. Variables: 25
No. Points: 2
Command: btdsim version rd
Variables: 
	0	vn1	V
	1	n1	V
	2	n3	V
	3	n10	V
	4	n30	V
	5	n2	V
	6	n4	V
	7	n20	V
	8	n40	V
	9	xrnodwo1.1	V
	10	xrnodwo2.1	V
	11	xrpodwo1.1	V
	12	xrpodwo2.1	V
	13	xrnpolywo1.1	V
	14	xrnpolywo2.1	V
	15	xrppolywo1.1	V
	16	xrppolywo2.1	V
	17	vn1#branch	A
	18	vn3#branch	A
	19	vn10#branch	A
	20	vn30#branch	A
	21	vn2#branch	A
	22	vn4#branch	A
	23	vn20#branch	A
	24	vn40#branch	A
Values:
0	 1.000000e-01
	 1.000000e-01
	 1.000000e-01
	 1.000000e-01
	 1.000000e-01
	 1.000000e-01
	 1.000000e-01
	 1.000000e-01
	 1.000000e-01
	 6.200301e-02
	 6.200301e-02
	 7.709287e-02
	 7.709287e-02
	 6.973131e-02
	 6.973131e-02
	 9.706606e-02
	 9.706606e-02
	-7.296002e-04
	-7.248689e-04
	-4.138598e-04
	-4.064371e-04
	-3.981105e-04
	-4.396755e-04
	-1.523438e-04
	-1.494536e-04
1	 2.000000e-01
	 2.000000e-01
	 1.000000e-01
	 1.000000e-01
	 1.000000e-01
	 1.000000e-01
	 1.000000e-01
	 1.000000e-01
	 1.000000e-01
	 1.243782e-01
	 6.200301e-02
	 7.709287e-02
	 7.709287e-02
	 6.973131e-02
	 6.973131e-02
	 9.706606e-02
	 9.706606e-02
	-1.452054e-03
	-7.248689e-04
	-4.138598e-04
	-4.064371e-04
	-3.981105e-04
	-4.396755e-04
	-1.523438e-04
	-1.494536e-04
Title:   
Date: Tue Mar 28 16:11:42 2023
Plotname: Results of measure analysis
Flags: real
No. Variables: 4
No. Points: 1
Command: btdsim version rd
Variables: 
	0	res_mis_rnodwo	
	1	res_mis_rpodwo	
	2	res_mis_rnpolywo	
	3	res_mis_rppolywo	
Values:
0 -6.50578311e-03
 -1.80976553e-02
  9.92259336e-02
 -1.91532441e-02
#btd_param iteration 4
Title:   
Date: Tue Mar 28 16:11:43 2023
Plotname: Operating Point
Flags: real
No. Variables: 25
No. Points: 2
Command: btdsim version rd
Variables: 
	0	vn1	V
	1	n1	V
	2	n3	V
	3	n10	V
	4	n30	V
	5	n2	V
	6	n4	V
	7	n20	V
	8	n40	V
	9	xrnodwo1.1	V
	10	xrnodwo2.1	V
	11	xrpodwo1.1	V
	12	xrpodwo2.1	V
	13	xrnpolywo1.1	V
	14	xrnpolywo2.1	V
	15	xrppolywo1.1	V
	16	xrppolywo2.1	V
	17	vn1#branch	A
	18	vn3#branch	A
	19	vn10#branch	A
	20	vn30#branch	A
	21	vn2#branch	A
	22	vn4#branch	A
	23	vn20#branch	A
	24	vn40#branch	A
Values:
0	 1.000000e-01
	 1.000000e-01
	 1.000000e-01
	 1.000000e-01
	 1.000000e-01
	 1.000000e-01
	 1.000000e-01
	 1.000000e-01
	 1.000000e-01
	 6.200301e-02
	 6.200301e-02
	 7.709287e-02
	 7.709287e-02
	 6.973131e-02
	 6.973131e-02
	 9.706606e-02
	 9.706606e-02
	-7.179281e-04
	-7.175053e-04
	-4.159303e-04
	-4.087235e-04
	-4.429271e-04
	-3.963983e-04
	-1.448800e-04
	-1.467150e-04
1	 2.000000e-01
	 2.000000e-01
	 1.000000e-01
	 1.000000e-01
	 1.000000e-01
	 1.000000e-01
	 1.000000e-01
	 1.000000e-01
	 1.000000e-01
	 1.243782e-01
	 6.200301e-02
	 7.709287e-02
	 7.709287e-02
	 6.973131e-02
	 6.973131e-02
	 9.706606e-02
	 9.706606e-02
	-1.428824e-03
	-7.175053e-04
	-4.159303e-04
	-4.087235e-04
	-4.429271e-04
	-3.963983e-04
	-1.448800e-04
	-1.467150e-04
Title:   
Date: Tue Mar 28 16:11:43 2023
Plotname: Results of measure analysis
Flags: real
No. Variables: 4
No. Points: 1
Command: btdsim version rd
Variables: 
	0	res_mis_rnodwo	
	1	res_mis_rpodwo	
	2	res_mis_rnpolywo	
	3	res_mis_rppolywo	
Values:
0 -5.89084319e-04
 -1.74785222e-02
 -1.10871984e-01
  1.25862994e-02
#btd_param iteration 5
Title:   
Date: Tue Mar 28 16:11:44 2023
Plotname: Operating Point
Flags: real
No. Variables: 25
No. Points: 2
Command: btdsim version rd
Variables: 
	0	vn1	V
	1	n1	V
	2	n3	V
	3	n10	V
	4	n30	V
	5	n2	V
	6	n4	V
	7	n20	V
	8	n40	V
	9	xrnodwo1.1	V
	10	xrnodwo2.1	V
	11	xrpodwo1.1	V
	12	xrpodwo2.1	V
	13	xrnpolywo1.1	V
	14	xrnpolywo2.1	V
	15	xrppolywo1.1	V
	16	xrppolywo2.1	V
	17	vn1#branch	A
	18	vn3#branch	A
	19	vn10#branch	A
	20	vn30#branch	A
	21	vn2#branch	A
	22	vn4#branch	A
	23	vn20#branch	A
	24	vn40#branch	A
Values:
0	 1.000000e-01
	 1.000000e-01
	 1.000000e-01
	 1.000000e-01
	 1.000000e-01
	 1.000000e-01
	 1.000000e-01
	 1.000000e-01
	 1.000000e-01
	 6.200301e-02
	 6.200301e-02
	 7.709287e-02
	 7.709287e-02
	 6.973131e-02
	 6.973131e-02
	 9.706606e-02
	 9.706606e-02
	-7.176192e-04
	-7.251939e-04
	-4.056730e-04
	-4.113013e-04
	-4.833432e-04
	-4.336768e-04
	-1.479949e-04
	-1.499760e-04
1	 2.000000e-01
	 2.000000e-01
	 1.000000e-01
	 1.000000e-01
	 1.000000e-01
	 1.000000e-01
	 1.000000e-01
	 1.000000e-01
	 1.000000e-01
	 1.243782e-01
	 6.200301e-02
	 7.709287e-02
	 7.709287e-02
	 6.973131e-02
	 6.973131e-02
	 9.706606e-02
	 9.706606e-02
	-1.428209e-03
	-7.251939e-04
	-4.056730e-04
	-4.113013e-04
	-4.833432e-04
	-4.336768e-04
	-1.479949e-04
	-1.499760e-04
Title:   
Date: Tue Mar 28 16:11:44 2023
Plotname: Results of measure analysis
Flags: real
No. Variables: 4
No. Points: 1
Command: btdsim version rd
Variables: 
	0	res_mis_rnodwo	
	1	res_mis_rpodwo	
	2	res_mis_rnpolywo	
	3	res_mis_rppolywo	
Values:
0  1.04998868e-02
  1.37785289e-02
 -1.08321456e-01
  1.32974926e-02
#btd_param iteration 6
Title:   
Date: Tue Mar 28 16:11:45 2023
Plotname: Operating Point
Flags: real
No. Variables: 25
No. Points: 2
Command: btdsim version rd
Variables: 
	0	vn1	V
	1	n1	V
	2	n3	V
	3	n10	V
	4	n30	V
	5	n2	V
	6	n4	V
	7	n20	V
	8	n40	V
	9	xrnodwo1.1	V
	10	xrnodwo2.1	V
	11	xrpodwo1.1	V
	12	xrpodwo2.1	V
	13	xrnpolywo1.1	V
	14	xrnpolywo2.1	V
	15	xrppolywo1.1	V
	16	xrppolywo2.1	V
	17	vn1#branch	A
	18	vn3#branch	A
	19	vn10#branch	A
	20	vn30#branch	A
	21	vn2#branch	A
	22	vn4#branch	A
	23	vn20#branch	A
	24	vn40#branch	A
Values:
0	 1.000000e-01
	 1.000000e-01
	 1.000000e-01
	 1.000000e-01
	 1.000000e-01
	 1.000000e-01
	 1.000000e-01
	 1.000000e-01
	 1.000000e-01
	 6.200301e-02
	 6.200301e-02
	 7.709287e-02
	 7.709287e-02
	 6.973131e-02
	 6.973131e-02
	 9.706606e-02
	 9.706606e-02
	-7.211859e-04
	-7.144522e-04
	-4.156323e-04
	-4.068444e-04
	-4.158592e-04
	-4.179925e-04
	-1.507438e-04
	-1.511176e-04
1	 2.000000e-01
	 2.000000e-01
	 1.000000e-01
	 1.000000e-01
	 1.000000e-01
	 1.000000e-01
	 1.000000e-01
	 1.000000e-01
	 1.000000e-01
	 1.243782e-01
	 6.200301e-02
	 7.709287e-02
	 7.709287e-02
	 6.973131e-02
	 6.973131e-02
	 9.706606e-02
	 9.706606e-02
	-1.435308e-03
	-7.144522e-04
	-4.156323e-04
	-4.068444e-04
	-4.158592e-04
	-4.179925e-04
	-1.507438e-04
	-1.511176e-04
Title:   
Date: Tue Mar 28 16:11:45 2023
Plotname: Results of measure analysis
Flags: real
No. Variables: 4
No. Points: 1
Command: btdsim version rd
Variables: 
	0	res_mis_rnodwo	
	1	res_mis_rpodwo	
	2	res_mis_rnpolywo	
	3	res_mis_rppolywo	
Values:
0 -9.38077189e-03
 -2.13691481e-02
  5.11672848e-03
  2.47724328e-03
#btd_param iteration 7
Title:   
Date: Tue Mar 28 16:11:46 2023
Plotname: Operating Point
Flags: real
No. Variables: 25
No. Points: 2
Command: btdsim version rd
Variables: 
	0	vn1	V
	1	n1	V
	2	n3	V
	3	n10	V
	4	n30	V
	5	n2	V
	6	n4	V
	7	n20	V
	8	n40	V
	9	xrnodwo1.1	V
	10	xrnodwo2.1	V
	11	xrpodwo1.1	V
	12	xrpodwo2.1	V
	13	xrnpolywo1.1	V
	14	xrnpolywo2.1	V
	15	xrppolywo1.1	V
	16	xrppolywo2.1	V
	17	vn1#branch	A
	18	vn3#branch	A
	19	vn10#branch	A
	20	vn30#branch	A
	21	vn2#branch	A
	22	vn4#branch	A
	23	vn20#branch	A
	24	vn40#branch	A
Values:
0	 1.000000e-01
	 1.000000e-01
	 1.000000e-01
	 1.000000e-01
	 1.000000e-01
	 1.000000e-01
	 1.000000e-01
	 1.000000e-01
	 1.000000e-01
	 6.200301e-02
	 6.200301e-02
	 7.709287e-02
	 7.709287e-02
	 6.973131e-02
	 6.973131e-02
	 9.706606e-02
	 9.706606e-02
	-7.216116e-04
	-7.205066e-04
	-4.068345e-04
	-4.103660e-04
	-4.723646e-04
	-3.857882e-04
	-1.571008e-04
	-1.497411e-04
1	 2.000000e-01
	 2.000000e-01
	 1.000000e-01
	 1.000000e-01
	 1.000000e-01
	 1.000000e-01
	 1.000000e-01
	 1.000000e-01
	 1.000000e-01
	 1.243782e-01
	 6.200301e-02
	 7.709287e-02
	 7.709287e-02
	 6.973131e-02
	 6.973131e-02
	 9.706606e-02
	 9.706606e-02
	-1.436155e-03
	-7.205066e-04
	-4.068345e-04
	-4.103660e-04
	-4.723646e-04
	-3.857882e-04
	-1.571008e-04
	-1.497411e-04
Title:   
Date: Tue Mar 28 16:11:46 2023
Plotname: Results of measure analysis
Flags: real
No. Variables: 4
No. Points: 1
Command: btdsim version rd
Variables: 
	0	res_mis_rnodwo	
	1	res_mis_rpodwo	
	2	res_mis_rnpolywo	
	3	res_mis_rppolywo	
Values:
0 -1.53257647e-03
  8.64293069e-03
 -2.01773777e-01
 -4.79703513e-02
#btd_param iteration 8
Title:   
Date: Tue Mar 28 16:11:47 2023
Plotname: Operating Point
Flags: real
No. Variables: 25
No. Points: 2
Command: btdsim version rd
Variables: 
	0	vn1	V
	1	n1	V
	2	n3	V
	3	n10	V
	4	n30	V
	5	n2	V
	6	n4	V
	7	n20	V
	8	n40	V
	9	xrnodwo1.1	V
	10	xrnodwo2.1	V
	11	xrpodwo1.1	V
	12	xrpodwo2.1	V
	13	xrnpolywo1.1	V
	14	xrnpolywo2.1	V
	15	xrppolywo1.1	V
	16	xrppolywo2.1	V
	17	vn1#branch	A
	18	vn3#branch	A
	19	vn10#branch	A
	20	vn30#branch	A
	21	vn2#branch	A
	22	vn4#branch	A
	23	vn20#branch	A
	24	vn40#branch	A
Values:
0	 1.000000e-01
	 1.000000e-01
	 1.000000e-01
	 1.000000e-01
	 1.000000e-01
	 1.000000e-01
	 1.000000e-01
	 1.000000e-01
	 1.000000e-01
	 6.200301e-02
	 6.200301e-02
	 7.709287e-02
	 7.709287e-02
	 6.973131e-02
	 6.973131e-02
	 9.706606e-02
	 9.706606e-02
	-7.209895e-04
	-7.227069e-04
	-4.136287e-04
	-4.107067e-04
	-4.547609e-04
	-4.562083e-04
	-1.443656e-04
	-1.545990e-04
1	 2.000000e-01
	 2.000000e-01
	 1.000000e-01
	 1.000000e-01
	 1.000000e-01
	 1.000000e-01
	 1.000000e-01
	 1.000000e-01
	 1.000000e-01
	 1.243782e-01
	 6.200301e-02
	 7.709287e-02
	 7.709287e-02
	 6.973131e-02
	 6.973131e-02
	 9.706606e-02
	 9.706606e-02
	-1.434917e-03
	-7.227069e-04
	-4.136287e-04
	-4.107067e-04
	-4.547609e-04
	-4.562083e-04
	-1.443656e-04
	-1.545990e-04
Title:   
Date: Tue Mar 28 16:11:47 2023
Plotname: Results of measure analysis
Flags: real
No. Variables: 4
No. Points: 1
Command: btdsim version rd
Variables: 
	0	res_mis_rnodwo	
	1	res_mis_rpodwo	
	2	res_mis_rnpolywo	
	3	res_mis_rppolywo	
Values:
0  2.37926026e-03
 -7.08918586e-03
  3.17775579e-03
  6.84588627e-02
#btd_param iteration 9
Title:   
Date: Tue Mar 28 16:11:48 2023
Plotname: Operating Point
Flags: real
No. Variables: 25
No. Points: 2
Command: btdsim version rd
Variables: 
	0	vn1	V
	1	n1	V
	2	n3	V
	3	n10	V
	4	n30	V
	5	n2	V
	6	n4	V
	7	n20	V
	8	n40	V
	9	xrnodwo1.1	V
	10	xrnodwo2.1	V
	11	xrpodwo1.1	V
	12	xrpodwo2.1	V
	13	xrnpolywo1.1	V
	14	xrnpolywo2.1	V
	15	xrppolywo1.1	V
	16	xrppolywo2.1	V
	17	vn1#branch	A
	18	vn3#branch	A
	19	vn10#branch	A
	20	vn30#branch	A
	21	vn2#branch	A
	22	vn4#branch	A
	23	vn20#branch	A
	24	vn40#branch	A
Values:
0	 1.000000e-01
	 1.000000e-01
	 1.000000e-01
	 1.000000e-01
	 1.000000e-01
	 1.000000e-01
	 1.000000e-01
	 1.000000e-01
	 1.000000e-01
	 6.200301e-02
	 6.200301e-02
	 7.709287e-02
	 7.709287e-02
	 6.973131e-02
	 6.973131e-02
	 9.706606e-02
	 9.706606e-02
	-7.269135e-04
	-7.177131e-04
	-4.141612e-04
	-4.225255e-04
	-4.077715e-04
	-4.375000e-04
	-1.424522e-04
	-1.531847e-04
1	 2.000000e-01
	 2.000000e-01
	 1.000000e-01
	 1.000000e-01
	 1.000000e-01
	 1.000000e-01
	 1.000000e-01
	 1.000000e-01
	 1.000000e-01
	 1.243782e-01
	 6.200301e-02
	 7.709287e-02
	 7.709287e-02
	 6.973131e-02
	 6.973131e-02
	 9.706606e-02
	 9.706606e-02
	-1.446707e-03
	-7.177131e-04
	-4.141612e-04
	-4.225255e-04
	-4.077715e-04
	-4.375000e-04
	-1.424522e-04
	-1.531847e-04
Title:   
Date: Tue Mar 28 16:11:48 2023
Plotname: Results of measure analysis
Flags: real
No. Variables: 4
No. Points: 1
Command: btdsim version rd
Variables: 
	0	res_mis_rnodwo	
	1	res_mis_rpodwo	
	2	res_mis_rnpolywo	
	3	res_mis_rppolywo	
Values:
0 -1.27374604e-02
  1.99938459e-02
  7.03406722e-02
  7.26060196e-02
#btd_param iteration 10
Title:   
Date: Tue Mar 28 16:11:49 2023
Plotname: Operating Point
Flags: real
No. Variables: 25
No. Points: 2
Command: btdsim version rd
Variables: 
	0	vn1	V
	1	n1	V
	2	n3	V
	3	n10	V
	4	n30	V
	5	n2	V
	6	n4	V
	7	n20	V
	8	n40	V
	9	xrnodwo1.1	V
	10	xrnodwo2.1	V
	11	xrpodwo1.1	V
	12	xrpodwo2.1	V
	13	xrnpolywo1.1	V
	14	xrnpolywo2.1	V
	15	xrppolywo1.1	V
	16	xrppolywo2.1	V
	17	vn1#branch	A
	18	vn3#branch	A
	19	vn10#branch	A
	20	vn30#branch	A
	21	vn2#branch	A
	22	vn4#branch	A
	23	vn20#branch	A
	24	vn40#branch	A
Values:
0	 1.000000e-01
	 1.000000e-01
	 1.000000e-01
	 1.000000e-01
	 1.000000e-01
	 1.000000e-01
	 1.000000e-01
	 1.000000e-01
	 1.000000e-01
	 6.200301e-02
	 6.200301e-02
	 7.709287e-02
	 7.709287e-02
	 6.973131e-02
	 6.973131e-02
	 9.706606e-02
	 9.706606e-02
	-7.218175e-04
	-7.128232e-04
	-4.111327e-04
	-4.146396e-04
	-4.359532e-04
	-4.206393e-04
	-1.500073e-04
	-1.601335e-04
1	 2.000000e-01
	 2.000000e-01
	 1.000000e-01
	 1.000000e-01
	 1.000000e-01
	 1.000000e-01
	 1.000000e-01
	 1.000000e-01
	 1.000000e-01
	 1.243782e-01
	 6.200301e-02
	 7.709287e-02
	 7.709287e-02
	 6.973131e-02
	 6.973131e-02
	 9.706606e-02
	 9.706606e-02
	-1.436565e-03
	-7.128232e-04
	-4.111327e-04
	-4.146396e-04
	-4.359532e-04
	-4.206393e-04
	-1.500073e-04
	-1.601335e-04
Title:   
Date: Tue Mar 28 16:11:49 2023
Plotname: Results of measure analysis
Flags: real
No. Variables: 4
No. Points: 1
Command: btdsim version rd
Variables: 
	0	res_mis_rnodwo	
	1	res_mis_rpodwo	
	2	res_mis_rnpolywo	
	3	res_mis_rppolywo	
Values:
0 -1.25388127e-02
  8.49341610e-03
 -3.57555010e-02
  6.53010403e-02
#btd_param iteration 11
Title:   
Date: Tue Mar 28 16:11:50 2023
Plotname: Operating Point
Flags: real
No. Variables: 25
No. Points: 2
Command: btdsim version rd
Variables: 
	0	vn1	V
	1	n1	V
	2	n3	V
	3	n10	V
	4	n30	V
	5	n2	V
	6	n4	V
	7	n20	V
	8	n40	V
	9	xrnodwo1.1	V
	10	xrnodwo2.1	V
	11	xrpodwo1.1	V
	12	xrpodwo2.1	V
	13	xrnpolywo1.1	V
	14	xrnpolywo2.1	V
	15	xrppolywo1.1	V
	16	xrppolywo2.1	V
	17	vn1#branch	A
	18	vn3#branch	A
	19	vn10#branch	A
	20	vn30#branch	A
	21	vn2#branch	A
	22	vn4#branch	A
	23	vn20#branch	A
	24	vn40#branch	A
Values:
0	 1.000000e-01
	 1.000000e-01
	 1.000000e-01
	 1.000000e-01
	 1.000000e-01
	 1.000000e-01
	 1.000000e-01
	 1.000000e-01
	 1.000000e-01
	 6.200301e-02
	 6.200301e-02
	 7.709287e-02
	 7.709287e-02
	 6.973131e-02
	 6.973131e-02
	 9.706606e-02
	 9.706606e-02
	-7.183455e-04
	-7.240623e-04
	-4.107285e-04
	-4.099317e-04
	-4.174899e-04
	-4.239811e-04
	-1.544443e-04
	-1.543980e-04
1	 2.000000e-01
	 2.000000e-01
	 1.000000e-01
	 1.000000e-01
	 1.000000e-01
	 1.000000e-01
	 1.000000e-01
	 1.000000e-01
	 1.000000e-01
	 1.243782e-01
	 6.200301e-02
	 7.709287e-02
	 7.709287e-02
	 6.973131e-02
	 6.973131e-02
	 9.706606e-02
	 9.706606e-02
	-1.429655e-03
	-7.240623e-04
	-4.107285e-04
	-4.099317e-04
	-4.174899e-04
	-4.239811e-04
	-1.544443e-04
	-1.543980e-04
Title:   
Date: Tue Mar 28 16:11:50 2023
Plotname: Results of measure analysis
Flags: real
No. Variables: 4
No. Points: 1
Command: btdsim version rd
Variables: 
	0	res_mis_rnodwo	
	1	res_mis_rpodwo	
	2	res_mis_rnpolywo	
	3	res_mis_rppolywo	
Values:
0  7.92665693e-03
 -1.94185930e-03
  1.54282761e-02
 -2.99691116e-04
#btd_param iteration 12
Title:   
Date: Tue Mar 28 16:11:52 2023
Plotname: Operating Point
Flags: real
No. Variables: 25
No. Points: 2
Command: btdsim version rd
Variables: 
	0	vn1	V
	1	n1	V
	2	n3	V
	3	n10	V
	4	n30	V
	5	n2	V
	6	n4	V
	7	n20	V
	8	n40	V
	9	xrnodwo1.1	V
	10	xrnodwo2.1	V
	11	xrpodwo1.1	V
	12	xrpodwo2.1	V
	13	xrnpolywo1.1	V
	14	xrnpolywo2.1	V
	15	xrppolywo1.1	V
	16	xrppolywo2.1	V
	17	vn1#branch	A
	18	vn3#branch	A
	19	vn10#branch	A
	20	vn30#branch	A
	21	vn2#branch	A
	22	vn4#branch	A
	23	vn20#branch	A
	24	vn40#branch	A
Values:
0	 1.000000e-01
	 1.000000e-01
	 1.000000e-01
	 1.000000e-01
	 1.000000e-01
	 1.000000e-01
	 1.000000e-01
	 1.000000e-01
	 1.000000e-01
	 6.200301e-02
	 6.200301e-02
	 7.709287e-02
	 7.709287e-02
	 6.973131e-02
	 6.973131e-02
	 9.706606e-02
	 9.706606e-02
	-7.157836e-04
	-7.218232e-04
	-4.144030e-04
	-4.113935e-04
	-4.189247e-04
	-4.232524e-04
	-1.481603e-04
	-1.456703e-04
1	 2.000000e-01
	 2.000000e-01
	 1.000000e-01
	 1.000000e-01
	 1.000000e-01
	 1.000000e-01
	 1.000000e-01
	 1.000000e-01
	 1.000000e-01
	 1.243782e-01
	 6.200301e-02
	 7.709287e-02
	 7.709287e-02
	 6.973131e-02
	 6.973131e-02
	 9.706606e-02
	 9.706606e-02
	-1.424556e-03
	-7.218232e-04
	-4.144030e-04
	-4.113935e-04
	-4.189247e-04
	-4.232524e-04
	-1.481603e-04
	-1.456703e-04
Title:   
Date: Tue Mar 28 16:11:52 2023
Plotname: Results of measure analysis
Flags: real
No. Variables: 4
No. Points: 1
Command: btdsim version rd
Variables: 
	0	res_mis_rnodwo	
	1	res_mis_rpodwo	
	2	res_mis_rnpolywo	
	3	res_mis_rppolywo	
Values:
0  8.40229223e-03
 -7.28866877e-03
  1.02774501e-02
 -1.69486685e-02
#btd_param iteration 13
Title:   
Date: Tue Mar 28 16:11:53 2023
Plotname: Operating Point
Flags: real
No. Variables: 25
No. Points: 2
Command: btdsim version rd
Variables: 
	0	vn1	V
	1	n1	V
	2	n3	V
	3	n10	V
	4	n30	V
	5	n2	V
	6	n4	V
	7	n20	V
	8	n40	V
	9	xrnodwo1.1	V
	10	xrnodwo2.1	V
	11	xrpodwo1.1	V
	12	xrpodwo2.1	V
	13	xrnpolywo1.1	V
	14	xrnpolywo2.1	V
	15	xrppolywo1.1	V
	16	xrppolywo2.1	V
	17	vn1#branch	A
	18	vn3#branch	A
	19	vn10#branch	A
