Title: Empty Header
Date: Fri Mar 31 14:20:25 2023
Plotname: Empty Plot
Flags: real
No. Variables: 0
No. Points: 0
Command: btdsim version rd
Variables: 
Values:
#btd_begin_sweep 1
#btd_param iteration 1
Title:   
Date: Fri Mar 31 14:20:26 2023
Plotname: Operating Point
Flags: real
No. Variables: 25
No. Points: 2
Command: btdsim version rd
Variables: 
	0	vn1	V
	1	n1	V
	2	n3	V
	3	n10	V
	4	n30	V
	5	n2	V
	6	n4	V
	7	n20	V
	8	n40	V
	9	xrnodwo1.1	V
	10	xrnodwo2.1	V
	11	xrpodwo1.1	V
	12	xrpodwo2.1	V
	13	xrnpolywo1.1	V
	14	xrnpolywo2.1	V
	15	xrppolywo1.1	V
	16	xrppolywo2.1	V
	17	vn1#branch	A
	18	vn3#branch	A
	19	vn10#branch	A
	20	vn30#branch	A
	21	vn2#branch	A
	22	vn4#branch	A
	23	vn20#branch	A
	24	vn40#branch	A
Values:
0	 1.000000e-01
	 1.000000e-01
	 1.000000e-01
	 1.000000e-01
	 1.000000e-01
	 1.000000e-01
	 1.000000e-01
	 1.000000e-01
	 1.000000e-01
	 6.200301e-02
	 6.200301e-02
	 7.709287e-02
	 7.709287e-02
	 6.973131e-02
	 6.973131e-02
	 9.706606e-02
	 9.706606e-02
	-7.078675e-04
	-7.221666e-04
	-4.115001e-04
	-4.121764e-04
	-3.996891e-04
	-4.139732e-04
	-1.441384e-04
	-1.478412e-04
1	 2.000000e-01
	 2.000000e-01
	 1.000000e-01
	 1.000000e-01
	 1.000000e-01
	 1.000000e-01
	 1.000000e-01
	 1.000000e-01
	 1.000000e-01
	 1.243782e-01
	 6.200301e-02
	 7.709287e-02
	 7.709287e-02
	 6.973131e-02
	 6.973131e-02
	 9.706606e-02
	 9.706606e-02
	-1.408802e-03
	-7.221666e-04
	-4.115001e-04
	-4.121764e-04
	-3.996891e-04
	-4.139732e-04
	-1.441384e-04
	-1.478412e-04
Title:   
Date: Fri Mar 31 14:20:26 2023
Plotname: Results of measure analysis
Flags: real
No. Variables: 4
No. Points: 1
Command: btdsim version rd
Variables: 
	0	res_mis_rnodwo	
	1	res_mis_rpodwo	
	2	res_mis_rnpolywo	
	3	res_mis_rppolywo	
Values:
0  1.99982844e-02
  1.64207556e-03
  3.51106648e-02
  2.53628181e-02
#btd_param iteration 2
Title:   
Date: Fri Mar 31 14:20:27 2023
Plotname: Operating Point
Flags: real
No. Variables: 25
No. Points: 2
Command: btdsim version rd
Variables: 
	0	vn1	V
	1	n1	V
	2	n3	V
	3	n10	V
	4	n30	V
	5	n2	V
	6	n4	V
	7	n20	V
	8	n40	V
	9	xrnodwo1.1	V
	10	xrnodwo2.1	V
	11	xrpodwo1.1	V
	12	xrpodwo2.1	V
	13	xrnpolywo1.1	V
	14	xrnpolywo2.1	V
	15	xrppolywo1.1	V
	16	xrppolywo2.1	V
	17	vn1#branch	A
	18	vn3#branch	A
	19	vn10#branch	A
	20	vn30#branch	A
	21	vn2#branch	A
	22	vn4#branch	A
	23	vn20#branch	A
	24	vn40#branch	A
Values:
0	 1.000000e-01
	 1.000000e-01
	 1.000000e-01
	 1.000000e-01
	 1.000000e-01
	 1.000000e-01
	 1.000000e-01
	 1.000000e-01
	 1.000000e-01
	 6.200301e-02
	 6.200301e-02
	 7.709287e-02
	 7.709287e-02
	 6.973131e-02
	 6.973131e-02
	 9.706606e-02
	 9.706606e-02
	-7.244641e-04
	-7.186985e-04
	-4.153653e-04
	-4.152729e-04
	-4.345868e-04
	-4.033447e-04
	-1.539251e-04
	-1.492908e-04
1	 2.000000e-01
	 2.000000e-01
	 1.000000e-01
	 1.000000e-01
	 1.000000e-01
	 1.000000e-01
	 1.000000e-01
	 1.000000e-01
	 1.000000e-01
	 1.243782e-01
	 6.200301e-02
	 7.709287e-02
	 7.709287e-02
	 6.973131e-02
	 6.973131e-02
	 9.706606e-02
	 9.706606e-02
	-1.441832e-03
	-7.186985e-04
	-4.153653e-04
	-4.152729e-04
	-4.345868e-04
	-4.033447e-04
	-1.539251e-04
	-1.492908e-04
Title:   
Date: Fri Mar 31 14:20:27 2023
Plotname: Results of measure analysis
Flags: real
No. Variables: 4
No. Points: 1
Command: btdsim version rd
Variables: 
	0	res_mis_rnodwo	
	1	res_mis_rpodwo	
	2	res_mis_rnpolywo	
	3	res_mis_rppolywo	
Values:
0 -7.99030564e-03
 -2.22531239e-04
 -7.45695677e-02
 -3.05672191e-02
#btd_param iteration 3
Title:   
Date: Fri Mar 31 14:20:29 2023
Plotname: Operating Point
Flags: real
No. Variables: 25
No. Points: 2
Command: btdsim version rd
Variables: 
	0	vn1	V
	1	n1	V
	2	n3	V
	3	n10	V
	4	n30	V
	5	n2	V
	6	n4	V
	7	n20	V
	8	n40	V
	9	xrnodwo1.1	V
	10	xrnodwo2.1	V
	11	xrpodwo1.1	V
	12	xrpodwo2.1	V
	13	xrnpolywo1.1	V
	14	xrnpolywo2.1	V
	15	xrppolywo1.1	V
	16	xrppolywo2.1	V
	17	vn1#branch	A
	18	vn3#branch	A
	19	vn10#branch	A
	20	vn30#branch	A
	21	vn2#branch	A
	22	vn4#branch	A
	23	vn20#branch	A
	24	vn40#branch	A
Values:
0	 1.000000e-01
	 1.000000e-01
	 1.000000e-01
	 1.000000e-01
	 1.000000e-01
	 1.000000e-01
	 1.000000e-01
	 1.000000e-01
	 1.000000e-01
	 6.200301e-02
	 6.200301e-02
	 7.709287e-02
	 7.709287e-02
	 6.973131e-02
	 6.973131e-02
	 9.706606e-02
	 9.706606e-02
	-7.207243e-04
	-7.177743e-04
	-4.151251e-04
	-4.138034e-04
	-4.272690e-04
	-4.212806e-04
	-1.562913e-04
	-1.557259e-04
1	 2.000000e-01
	 2.000000e-01
	 1.000000e-01
	 1.000000e-01
	 1.000000e-01
	 1.000000e-01
	 1.000000e-01
	 1.000000e-01
	 1.000000e-01
	 1.243782e-01
	 6.200301e-02
	 7.709287e-02
	 7.709287e-02
	 6.973131e-02
	 6.973131e-02
	 9.706606e-02
	 9.706606e-02
	-1.434389e-03
	-7.177743e-04
	-4.151251e-04
	-4.138034e-04
	-4.272690e-04
	-4.212806e-04
	-1.562913e-04
	-1.557259e-04
Title:   
Date: Fri Mar 31 14:20:29 2023
Plotname: Results of measure analysis
Flags: real
No. Variables: 4
No. Points: 1
Command: btdsim version rd
Variables: 
	0	res_mis_rnodwo	
	1	res_mis_rpodwo	
	2	res_mis_rnpolywo	
	3	res_mis_rppolywo	
Values:
0 -4.10160521e-03
 -3.18876300e-03
 -1.41143856e-02
 -3.62443237e-03
#btd_param iteration 4
Title:   
Date: Fri Mar 31 14:20:30 2023
Plotname: Operating Point
Flags: real
No. Variables: 25
No. Points: 2
Command: btdsim version rd
Variables: 
	0	vn1	V
	1	n1	V
	2	n3	V
	3	n10	V
	4	n30	V
	5	n2	V
	6	n4	V
	7	n20	V
	8	n40	V
	9	xrnodwo1.1	V
	10	xrnodwo2.1	V
	11	xrpodwo1.1	V
	12	xrpodwo2.1	V
	13	xrnpolywo1.1	V
	14	xrnpolywo2.1	V
	15	xrppolywo1.1	V
	16	xrppolywo2.1	V
	17	vn1#branch	A
	18	vn3#branch	A
	19	vn10#branch	A
	20	vn30#branch	A
	21	vn2#branch	A
	22	vn4#branch	A
	23	vn20#branch	A
	24	vn40#branch	A
Values:
0	 1.000000e-01
	 1.000000e-01
	 1.000000e-01
	 1.000000e-01
	 1.000000e-01
	 1.000000e-01
	 1.000000e-01
	 1.000000e-01
	 1.000000e-01
	 6.200301e-02
	 6.200301e-02
	 7.709287e-02
	 7.709287e-02
	 6.973131e-02
	 6.973131e-02
	 9.706606e-02
	 9.706606e-02
	-7.274611e-04
	-7.250477e-04
	-4.119984e-04
	-4.125204e-04
	-4.298017e-04
	-3.904425e-04
	-1.466579e-04
	-1.534642e-04
1	 2.000000e-01
	 2.000000e-01
	 1.000000e-01
	 1.000000e-01
	 1.000000e-01
	 1.000000e-01
	 1.000000e-01
	 1.000000e-01
	 1.000000e-01
	 1.243782e-01
	 6.200301e-02
	 7.709287e-02
	 7.709287e-02
	 6.973131e-02
	 6.973131e-02
	 9.706606e-02
	 9.706606e-02
	-1.447797e-03
	-7.250477e-04
	-4.119984e-04
	-4.125204e-04
	-4.298017e-04
	-3.904425e-04
	-1.466579e-04
	-1.534642e-04
Title:   
Date: Fri Mar 31 14:20:30 2023
Plotname: Results of measure analysis
Flags: real
No. Variables: 4
No. Points: 1
Command: btdsim version rd
Variables: 
	0	res_mis_rnodwo	
	1	res_mis_rpodwo	
	2	res_mis_rnpolywo	
	3	res_mis_rppolywo	
Values:
0 -3.32307580e-03
  1.26627383e-03
 -9.59696322e-02
  4.53564405e-02
#btd_param iteration 5
Title:   
Date: Fri Mar 31 14:20:31 2023
Plotname: Operating Point
Flags: real
No. Variables: 25
No. Points: 2
Command: btdsim version rd
Variables: 
	0	vn1	V
	1	n1	V
	2	n3	V
	3	n10	V
	4	n30	V
	5	n2	V
	6	n4	V
	7	n20	V
	8	n40	V
	9	xrnodwo1.1	V
	10	xrnodwo2.1	V
	11	xrpodwo1.1	V
	12	xrpodwo2.1	V
	13	xrnpolywo1.1	V
	14	xrnpolywo2.1	V
	15	xrppolywo1.1	V
	16	xrppolywo2.1	V
	17	vn1#branch	A
	18	vn3#branch	A
	19	vn10#branch	A
	20	vn30#branch	A
	21	vn2#branch	A
	22	vn4#branch	A
	23	vn20#branch	A
	24	vn40#branch	A
Values:
0	 1.000000e-01
	 1.000000e-01
	 1.000000e-01
	 1.000000e-01
	 1.000000e-01
	 1.000000e-01
	 1.000000e-01
	 1.000000e-01
	 1.000000e-01
	 6.200301e-02
	 6.200301e-02
	 7.709287e-02
	 7.709287e-02
	 6.973131e-02
	 6.973131e-02
	 9.706606e-02
	 9.706606e-02
	-7.103916e-04
	-7.137375e-04
	-4.123311e-04
	-4.136099e-04
	-4.093895e-04
	-4.323997e-04
	-1.467433e-04
	-1.507138e-04
1	 2.000000e-01
	 2.000000e-01
	 1.000000e-01
	 1.000000e-01
	 1.000000e-01
	 1.000000e-01
	 1.000000e-01
	 1.000000e-01
	 1.000000e-01
	 1.243782e-01
	 6.200301e-02
	 7.709287e-02
	 7.709287e-02
	 6.973131e-02
	 6.973131e-02
	 9.706606e-02
	 9.706606e-02
	-1.413825e-03
	-7.137375e-04
	-4.123311e-04
	-4.136099e-04
	-4.093895e-04
	-4.323997e-04
	-1.467433e-04
	-1.507138e-04
Title:   
Date: Fri Mar 31 14:20:31 2023
Plotname: Results of measure analysis
Flags: real
No. Variables: 4
No. Points: 1
Command: btdsim version rd
Variables: 
	0	res_mis_rnodwo	
	1	res_mis_rpodwo	
	2	res_mis_rnpolywo	
	3	res_mis_rppolywo	
Values:
0  4.69884676e-03
  3.09658879e-03
  5.46697107e-02
  2.66964186e-02
#btd_param iteration 6
Title:   
Date: Fri Mar 31 14:20:33 2023
Plotname: Operating Point
Flags: real
No. Variables: 25
No. Points: 2
Command: btdsim version rd
Variables: 
	0	vn1	V
	1	n1	V
	2	n3	V
	3	n10	V
	4	n30	V
	5	n2	V
	6	n4	V
	7	n20	V
	8	n40	V
	9	xrnodwo1.1	V
	10	xrnodwo2.1	V
	11	xrpodwo1.1	V
	12	xrpodwo2.1	V
	13	xrnpolywo1.1	V
	14	xrnpolywo2.1	V
	15	xrppolywo1.1	V
	16	xrppolywo2.1	V
	17	vn1#branch	A
	18	vn3#branch	A
	19	vn10#branch	A
	20	vn30#branch	A
	21	vn2#branch	A
	22	vn4#branch	A
	23	vn20#branch	A
	24	vn40#branch	A
Values:
0	 1.000000e-01
	 1.000000e-01
	 1.000000e-01
	 1.000000e-01
	 1.000000e-01
	 1.000000e-01
	 1.000000e-01
	 1.000000e-01
	 1.000000e-01
	 6.200301e-02
	 6.200301e-02
	 7.709287e-02
	 7.709287e-02
	 6.973131e-02
	 6.973131e-02
	 9.706606e-02
	 9.706606e-02
	-7.185457e-04
	-7.151594e-04
	-4.191165e-04
	-4.096060e-04
	-4.181889e-04
	-4.134560e-04
	-1.422273e-04
	-1.527212e-04
1	 2.000000e-01
	 2.000000e-01
	 1.000000e-01
	 1.000000e-01
	 1.000000e-01
	 1.000000e-01
	 1.000000e-01
	 1.000000e-01
	 1.000000e-01
	 1.243782e-01
	 6.200301e-02
	 7.709287e-02
	 7.709287e-02
	 6.973131e-02
	 6.973131e-02
	 9.706606e-02
	 9.706606e-02
	-1.430053e-03
	-7.151594e-04
	-4.191165e-04
	-4.096060e-04
	-4.181889e-04
	-4.134560e-04
	-1.422273e-04
	-1.527212e-04
Title:   
Date: Fri Mar 31 14:20:33 2023
Plotname: Results of measure analysis
Flags: real
No. Variables: 4
No. Points: 1
Command: btdsim version rd
Variables: 
	0	res_mis_rnodwo	
	1	res_mis_rpodwo	
	2	res_mis_rnpolywo	
	3	res_mis_rppolywo	
Values:
0 -4.72383369e-03
 -2.29520762e-02
 -1.13819772e-02
  7.11570892e-02
#btd_param iteration 7
Title:   
Date: Fri Mar 31 14:20:34 2023
Plotname: Operating Point
Flags: real
No. Variables: 25
No. Points: 2
Command: btdsim version rd
Variables: 
	0	vn1	V
	1	n1	V
	2	n3	V
	3	n10	V
	4	n30	V
	5	n2	V
	6	n4	V
	7	n20	V
	8	n40	V
	9	xrnodwo1.1	V
	10	xrnodwo2.1	V
	11	xrpodwo1.1	V
	12	xrpodwo2.1	V
	13	xrnpolywo1.1	V
	14	xrnpolywo2.1	V
	15	xrppolywo1.1	V
	16	xrppolywo2.1	V
	17	vn1#branch	A
	18	vn3#branch	A
	19	vn10#branch	A
	20	vn30#branch	A
	21	vn2#branch	A
	22	vn4#branch	A
	23	vn20#branch	A
	24	vn40#branch	A
Values:
0	 1.000000e-01
	 1.000000e-01
	 1.000000e-01
	 1.000000e-01
	 1.000000e-01
	 1.000000e-01
	 1.000000e-01
	 1.000000e-01
	 1.000000e-01
	 6.200301e-02
	 6.200301e-02
	 7.709287e-02
	 7.709287e-02
	 6.973131e-02
	 6.973131e-02
	 9.706606e-02
	 9.706606e-02
	-7.162858e-04
	-7.249613e-04
	-4.123857e-04
	-4.141983e-04
	-4.119303e-04
	-4.506341e-04
	-1.504400e-04
	-1.523277e-04
1	 2.000000e-01
	 2.000000e-01
	 1.000000e-01
	 1.000000e-01
	 1.000000e-01
	 1.000000e-01
	 1.000000e-01
	 1.000000e-01
	 1.000000e-01
	 1.243782e-01
	 6.200301e-02
	 7.709287e-02
	 7.709287e-02
	 6.973131e-02
	 6.973131e-02
	 9.706606e-02
	 9.706606e-02
	-1.425556e-03
	-7.249613e-04
	-4.123857e-04
	-4.141983e-04
	-4.119303e-04
	-4.506341e-04
	-1.504400e-04
	-1.523277e-04
Title:   
Date: Fri Mar 31 14:20:34 2023
Plotname: Results of measure analysis
Flags: real
No. Variables: 4
No. Points: 1
Command: btdsim version rd
Variables: 
	0	res_mis_rnodwo	
	1	res_mis_rpodwo	
	2	res_mis_rnpolywo	
	3	res_mis_rppolywo	
Values:
0  1.20389118e-02
  4.38591422e-03
  8.97412485e-02
  1.24698291e-02
#btd_param iteration 8
Title:   
Date: Fri Mar 31 14:20:35 2023
Plotname: Operating Point
Flags: real
No. Variables: 25
No. Points: 2
Command: btdsim version rd
Variables: 
	0	vn1	V
	1	n1	V
	2	n3	V
	3	n10	V
	4	n30	V
	5	n2	V
	6	n4	V
	7	n20	V
	8	n40	V
	9	xrnodwo1.1	V
	10	xrnodwo2.1	V
	11	xrpodwo1.1	V
	12	xrpodwo2.1	V
	13	xrnpolywo1.1	V
	14	xrnpolywo2.1	V
	15	xrppolywo1.1	V
	16	xrppolywo2.1	V
	17	vn1#branch	A
	18	vn3#branch	A
	19	vn10#branch	A
	20	vn30#branch	A
	21	vn2#branch	A
	22	vn4#branch	A
	23	vn20#branch	A
	24	vn40#branch	A
Values:
0	 1.000000e-01
	 1.000000e-01
	 1.000000e-01
	 1.000000e-01
	 1.000000e-01
	 1.000000e-01
	 1.000000e-01
	 1.000000e-01
	 1.000000e-01
	 6.200301e-02
	 6.200301e-02
	 7.709287e-02
	 7.709287e-02
	 6.973131e-02
	 6.973131e-02
	 9.706606e-02
	 9.706606e-02
	-7.253735e-04
	-7.242129e-04
	-4.107989e-04
	-4.125455e-04
	-4.134489e-04
	-4.164612e-04
	-1.480008e-04
	-1.539663e-04
1	 2.000000e-01
	 2.000000e-01
	 1.000000e-01
	 1.000000e-01
	 1.000000e-01
	 1.000000e-01
	 1.000000e-01
	 1.000000e-01
	 1.000000e-01
	 1.243782e-01
	 6.200301e-02
	 7.709287e-02
	 7.709287e-02
	 6.973131e-02
	 6.973131e-02
	 9.706606e-02
	 9.706606e-02
	-1.443642e-03
	-7.242129e-04
	-4.107989e-04
	-4.125455e-04
	-4.134489e-04
	-4.164612e-04
	-1.480008e-04
	-1.539663e-04
Title:   
Date: Fri Mar 31 14:20:35 2023
Plotname: Results of measure analysis
Flags: real
No. Variables: 4
No. Points: 1
Command: btdsim version rd
Variables: 
	0	res_mis_rnodwo	
	1	res_mis_rpodwo	
	2	res_mis_rnpolywo	
	3	res_mis_rppolywo	
Values:
0 -1.60127439e-03
  4.24279644e-03
  7.25941814e-03
  3.95109750e-02
#btd_param iteration 9
Title:   
Date: Fri Mar 31 14:20:37 2023
Plotname: Operating Point
Flags: real
No. Variables: 25
No. Points: 2
Command: btdsim version rd
Variables: 
	0	vn1	V
	1	n1	V
	2	n3	V
	3	n10	V
	4	n30	V
	5	n2	V
	6	n4	V
	7	n20	V
	8	n40	V
	9	xrnodwo1.1	V
	10	xrnodwo2.1	V
	11	xrpodwo1.1	V
	12	xrpodwo2.1	V
	13	xrnpolywo1.1	V
	14	xrnpolywo2.1	V
	15	xrppolywo1.1	V
	16	xrppolywo2.1	V
	17	vn1#branch	A
	18	vn3#branch	A
	19	vn10#branch	A
	20	vn30#branch	A
	21	vn2#branch	A
	22	vn4#branch	A
	23	vn20#branch	A
	24	vn40#branch	A
Values:
0	 1.000000e-01
	 1.000000e-01
	 1.000000e-01
	 1.000000e-01
	 1.000000e-01
	 1.000000e-01
	 1.000000e-01
	 1.000000e-01
	 1.000000e-01
	 6.200301e-02
	 6.200301e-02
	 7.709287e-02
	 7.709287e-02
	 6.973131e-02
	 6.973131e-02
	 9.706606e-02
	 9.706606e-02
	-7.166885e-04
	-7.251855e-04
	-4.128763e-04
	-4.082005e-04
	-3.966333e-04
	-4.509594e-04
	-1.509601e-04
	-1.572116e-04
1	 2.000000e-01
	 2.000000e-01
	 1.000000e-01
	 1.000000e-01
	 1.000000e-01
	 1.000000e-01
	 1.000000e-01
	 1.000000e-01
	 1.000000e-01
	 1.243782e-01
	 6.200301e-02
	 7.709287e-02
	 7.709287e-02
	 6.973131e-02
	 6.973131e-02
	 9.706606e-02
	 9.706606e-02
	-1.426357e-03
	-7.251855e-04
	-4.128763e-04
	-4.082005e-04
	-3.966333e-04
	-4.509594e-04
	-1.509601e-04
	-1.572116e-04
Title:   
Date: Fri Mar 31 14:20:37 2023
Plotname: Results of measure analysis
Flags: real
No. Variables: 4
No. Points: 1
Command: btdsim version rd
Variables: 
	0	res_mis_rnodwo	
	1	res_mis_rpodwo	
	2	res_mis_rnpolywo	
	3	res_mis_rppolywo	
Values:
0  1.17859436e-02
 -1.13894019e-02
  1.28189198e-01
  4.05715533e-02
#btd_param iteration 10
Title:   
Date: Fri Mar 31 14:20:38 2023
Plotname: Operating Point
Flags: real
No. Variables: 25
No. Points: 2
Command: btdsim version rd
Variables: 
	0	vn1	V
	1	n1	V
	2	n3	V
	3	n10	V
	4	n30	V
	5	n2	V
	6	n4	V
	7	n20	V
	8	n40	V
	9	xrnodwo1.1	V
	10	xrnodwo2.1	V
	11	xrpodwo1.1	V
	12	xrpodwo2.1	V
	13	xrnpolywo1.1	V
	14	xrnpolywo2.1	V
	15	xrppolywo1.1	V
	16	xrppolywo2.1	V
	17	vn1#branch	A
	18	vn3#branch	A
	19	vn10#branch	A
	20	vn30#branch	A
	21	vn2#branch	A
	22	vn4#branch	A
	23	vn20#branch	A
	24	vn40#branch	A
Values:
0	 1.000000e-01
	 1.000000e-01
	 1.000000e-01
	 1.000000e-01
	 1.000000e-01
	 1.000000e-01
	 1.000000e-01
	 1.000000e-01
	 1.000000e-01
	 6.200301e-02
	 6.200301e-02
	 7.709287e-02
	 7.709287e-02
	 6.973131e-02
	 6.973131e-02
	 9.706606e-02
	 9.706606e-02
	-7.259449e-04
	-7.203709e-04
	-4.089207e-04
	-4.125301e-04
	-4.002444e-04
	-4.332818e-04
	-1.470192e-04
	-1.552409e-04
1	 2.000000e-01
	 2.000000e-01
	 1.000000e-01
	 1.000000e-01
	 1.000000e-01
	 1.000000e-01
	 1.000000e-01
	 1.000000e-01
	 1.000000e-01
	 1.243782e-01
	 6.200301e-02
	 7.709287e-02
	 7.709287e-02
	 6.973131e-02
	 6.973131e-02
	 9.706606e-02
	 9.706606e-02
	-1.444779e-03
	-7.203709e-04
	-4.089207e-04
	-4.125301e-04
	-4.002444e-04
	-4.332818e-04
	-1.470192e-04
	-1.552409e-04
Title:   
Date: Fri Mar 31 14:20:38 2023
Plotname: Results of measure analysis
Flags: real
No. Variables: 4
No. Points: 1
Command: btdsim version rd
Variables: 
	0	res_mis_rnodwo	
	1	res_mis_rpodwo	
	2	res_mis_rnpolywo	
	3	res_mis_rppolywo	
Values:
0 -7.70782735e-03
  8.78777401e-03
  7.92714161e-02
  5.44016075e-02
#btd_param iteration 11
Title:   
Date: Fri Mar 31 14:20:40 2023
Plotname: Operating Point
Flags: real
No. Variables: 25
No. Points: 2
Command: btdsim version rd
Variables: 
	0	vn1	V
	1	n1	V
	2	n3	V
	3	n10	V
	4	n30	V
	5	n2	V
	6	n4	V
	7	n20	V
	8	n40	V
	9	xrnodwo1.1	V
	10	xrnodwo2.1	V
	11	xrpodwo1.1	V
	12	xrpodwo2.1	V
	13	xrnpolywo1.1	V
	14	xrnpolywo2.1	V
	15	xrppolywo1.1	V
	16	xrppolywo2.1	V
	17	vn1#branch	A
	18	vn3#branch	A
	19	vn10#branch	A
	20	vn30#branch	A
	21	vn2#branch	A
	22	vn4#branch	A
	23	vn20#branch	A
	24	vn40#branch	A
Values:
0	 1.000000e-01
	 1.000000e-01
	 1.000000e-01
	 1.000000e-01
	 1.000000e-01
	 1.000000e-01
	 1.000000e-01
	 1.000000e-01
	 1.000000e-01
	 6.200301e-02
	 6.200301e-02
	 7.709287e-02
	 7.709287e-02
	 6.973131e-02
	 6.973131e-02
	 9.706606e-02
	 9.706606e-02
	-7.255454e-04
	-7.214902e-04
	-4.151619e-04
	-4.143800e-04
	-3.999126e-04
	-4.106163e-04
	-1.526298e-04
	-1.529168e-04
1	 2.000000e-01
	 2.000000e-01
	 1.000000e-01
	 1.000000e-01
	 1.000000e-01
	 1.000000e-01
	 1.000000e-01
	 1.000000e-01
	 1.000000e-01
	 1.243782e-01
	 6.200301e-02
	 7.709287e-02
	 7.709287e-02
	 6.973131e-02
	 6.973131e-02
	 9.706606e-02
	 9.706606e-02
	-1.443984e-03
	-7.214902e-04
	-4.151619e-04
	-4.143800e-04
	-3.999126e-04
	-4.106163e-04
	-1.526298e-04
	-1.529168e-04
Title:   
Date: Fri Mar 31 14:20:40 2023
Plotname: Results of measure analysis
Flags: real
No. Variables: 4
No. Points: 1
Command: btdsim version rd
Variables: 
	0	res_mis_rnodwo	
	1	res_mis_rpodwo	
	2	res_mis_rnpolywo	
	3	res_mis_rppolywo	
Values:
0 -5.60492473e-03
 -1.88534267e-03
  2.64115771e-02
  1.87866048e-03
#btd_param iteration 12
Title:   
Date: Fri Mar 31 14:20:41 2023
Plotname: Operating Point
Flags: real
No. Variables: 25
No. Points: 2
Command: btdsim version rd
Variables: 
	0	vn1	V
	1	n1	V
	2	n3	V
	3	n10	V
	4	n30	V
	5	n2	V
	6	n4	V
	7	n20	V
	8	n40	V
	9	xrnodwo1.1	V
	10	xrnodwo2.1	V
	11	xrpodwo1.1	V
	12	xrpodwo2.1	V
	13	xrnpolywo1.1	V
	14	xrnpolywo2.1	V
	15	xrppolywo1.1	V
	16	xrppolywo2.1	V
	17	vn1#branch	A
	18	vn3#branch	A
	19	vn10#branch	A
	20	vn30#branch	A
	21	vn2#branch	A
	22	vn4#branch	A
	23	vn20#branch	A
	24	vn40#branch	A
Values:
0	 1.000000e-01
	 1.000000e-01
	 1.000000e-01
	 1.000000e-01
	 1.000000e-01
	 1.000000e-01
	 1.000000e-01
	 1.000000e-01
	 1.000000e-01
	 6.200301e-02
	 6.200301e-02
	 7.709287e-02
	 7.709287e-02
	 6.973131e-02
	 6.973131e-02
	 9.706606e-02
	 9.706606e-02
	-7.091907e-04
	-7.183277e-04
	-4.173224e-04
	-4.144679e-04
	-4.272923e-04
	-3.987234e-04
	-1.457066e-04
	-1.504241e-04
1	 2.000000e-01
	 2.000000e-01
	 1.000000e-01
	 1.000000e-01
	 1.000000e-01
	 1.000000e-01
	 1.000000e-01
	 1.000000e-01
	 1.000000e-01
	 1.243782e-01
	 6.200301e-02
	 7.709287e-02
	 7.709287e-02
	 6.973131e-02
	 6.973131e-02
	 9.706606e-02
	 9.706606e-02
	-1.411435e-03
	-7.183277e-04
	-4.173224e-04
	-4.144679e-04
	-4.272923e-04
	-3.987234e-04
	-1.457066e-04
	-1.504241e-04
Title:   
Date: Fri Mar 31 14:20:41 2023
Plotname: Results of measure analysis
Flags: real
No. Variables: 4
No. Points: 1
Command: btdsim version rd
Variables: 
	0	res_mis_rnodwo	
	1	res_mis_rpodwo	
	2	res_mis_rnpolywo	
	3	res_mis_rppolywo	
Values:
0  1.28012014e-02
 -6.86355169e-03
 -6.91729038e-02
  3.18607695e-02
#btd_param iteration 13
Title:   
Date: Fri Mar 31 14:20:42 2023
Plotname: Operating Point
Flags: real
No. Variables: 25
No. Points: 2
Command: btdsim version rd
Variables: 
	0	vn1	V
	1	n1	V
	2	n3	V
	3	n10	V
	4	n30	V
	5	n2	V
	6	n4	V
	7	n20	V
	8	n40	V
	9	xrnodwo1.1	V
	10	xrnodwo2.1	V
	11	xrpodwo1.1	V
	12	xrpodwo2.1	V
	13	xrnpolywo1.1	V
	14	xrnpolywo2.1	V
	15	xrppolywo1.1	V
	16	xrppolywo2.1	V
	17	vn1#branch	A
	18	vn3#branch	A
	19	vn10#branch	A
